T3CD0 000:004.173   SEGGER J-Link V6.86 Log File
T3CD0 000:004.279   DLL Compiled: Sep 24 2020 17:31:31
T3CD0 000:004.284   Logging started @ 2024-10-15 15:21
T3CD0 000:004.288 - 4.291ms
T3CD0 000:004.297 JLINK_SetWarnOutHandler(...)
T3CD0 000:004.303 - 0.008ms
T3CD0 000:004.308 JLINK_OpenEx(...)
T3CD0 000:005.405   Firmware: J-Link V12 compiled Jul 27 2020 17:04:53
T3CD0 000:007.897   Hardware: V10.10
T3CD0 000:007.914   S/N: 4294967295
T3CD0 000:007.921   OEM: SEGGER
T3CD0 000:007.927   Feature(s): GDB, RDI, FlashBP, FlashDL, JFlash
T3CD0 000:008.985   TELNET listener socket opened on port 19021
T3CD0 000:009.069   WEBSRV Starting webserver
T3CD0 000:009.200   WEBSRV Webserver running on local port 19080
T3CD0 000:009.209 - 4.903ms returns "O.K."
T3CD0 000:009.222 JLINK_GetEmuCaps()
T3CD0 000:009.227 - 0.007ms returns 0xB9FF7BBF
T3CD0 000:009.235 JLINK_TIF_GetAvailable(...)
T3CD0 000:009.353 - 0.123ms
T3CD0 000:009.366 JLINK_SetErrorOutHandler(...)
T3CD0 000:009.371 - 0.007ms
T3CD0 000:009.385 JLINK_ExecCommand("ProjectFile = "C:\Users\murphy\Desktop\murphy\JLinkSettings.ini"", ...). 
T3CD0 000:016.357 - 6.982ms returns 0x00
T3CD0 000:024.567 JLINK_ExecCommand("Device = STM32F103RC", ...). 
T3CD0 000:032.407   Device "STM32F103RC" selected.
T3CD0 000:032.651 - 8.068ms returns 0x00
T3CD0 000:032.670 JLINK_GetHardwareVersion()
T3CD0 000:032.675 - 0.007ms returns 101000
T3CD0 000:032.685 JLINK_GetDLLVersion()
T3CD0 000:032.690 - 0.006ms returns 68600
T3CD0 000:032.695 JLINK_GetOEMString(...)
T3CD0 000:032.701 JLINK_GetFirmwareString(...)
T3CD0 000:032.706 - 0.007ms
T3CD0 000:053.945 JLINK_GetDLLVersion()
T3CD0 000:053.963 - 0.020ms returns 68600
T3CD0 000:053.969 JLINK_GetCompileDateTime()
T3CD0 000:053.974 - 0.006ms
T3CD0 000:061.012 JLINK_GetFirmwareString(...)
T3CD0 000:061.033 - 0.022ms
T3CD0 000:068.172 JLINK_GetHardwareVersion()
T3CD0 000:068.185 - 0.015ms returns 101000
T3CD0 000:075.243 JLINK_GetSN()
T3CD0 000:075.267 - 0.027ms returns -1
T3CD0 000:075.274 JLINK_GetOEMString(...)
T3CD0 000:090.267 JLINK_TIF_Select(JLINKARM_TIF_SWD)
T3CD0 000:091.049 - 0.789ms returns 0x00
T3CD0 000:091.062 JLINK_HasError()
T3CD0 000:091.074 JLINK_SetSpeed(5000)
T3CD0 000:091.201 - 0.133ms
T3CD0 000:091.213 JLINK_GetId()
T3CD0 000:099.666   Found SW-DP with ID 0x1BA01477
T3CD0 000:124.440   Found SW-DP with ID 0x1BA01477
T3CD0 000:125.977   Old FW that does not support reading DPIDR via DAP jobs
T3CD0 000:133.327   Unknown DP version. Assuming DPv0
T3CD0 000:140.299   Scanning AP map to find all available APs
T3CD0 000:148.034   AP[1]: Stopped AP scan as end of AP map has been reached
T3CD0 000:155.252   AP[0]: AHB-AP (IDR: 0x14770011)
T3CD0 000:162.605   Iterating through AP map to find AHB-AP to use
T3CD0 000:171.027   AP[0]: Core found
T3CD0 000:177.986   AP[0]: AHB-AP ROM base: 0xE00FF000
T3CD0 000:185.251   CPUID register: 0x411FC231. Implementer code: 0x41 (ARM)
T3CD0 000:193.186   Found Cortex-M3 r1p1, Little endian.
T3CD0 000:294.398   -- Max. mem block: 0x00005248
T3CD0 000:294.424   CPU_ReadMem(4 bytes @ 0xE000EDF0)
T3CD0 000:294.849   CPU_ReadMem(4 bytes @ 0xE0002000)
T3CD0 000:302.546   FPUnit: 6 code (BP) slots and 2 literal slots
T3CD0 000:302.568   CPU_ReadMem(4 bytes @ 0xE000EDFC)
T3CD0 000:302.839   CPU_WriteMem(4 bytes @ 0xE000EDFC)
T3CD0 000:303.059   CPU_ReadMem(4 bytes @ 0xE0001000)
T3CD0 000:303.303   CPU_WriteMem(4 bytes @ 0xE0001000)
T3CD0 000:303.504   CPU_ReadMem(4 bytes @ 0xE000ED88)
T3CD0 000:303.784   CPU_WriteMem(4 bytes @ 0xE000ED88)
T3CD0 000:304.002   CPU_ReadMem(4 bytes @ 0xE000ED88)
T3CD0 000:304.224   CPU_WriteMem(4 bytes @ 0xE000ED88)
T3CD0 000:311.760   CoreSight components:
T3CD0 000:318.739   ROMTbl[0] @ E00FF000
T3CD0 000:318.764   CPU_ReadMem(64 bytes @ 0xE00FF000)
T3CD0 000:319.181   CPU_ReadMem(32 bytes @ 0xE000EFE0)
T3CD0 000:327.492   ROMTbl[0][0]: E000E000, CID: B105E00D, PID: 001BB000 SCS
T3CD0 000:327.522   CPU_ReadMem(32 bytes @ 0xE0001FE0)
T3CD0 000:335.464   ROMTbl[0][1]: E0001000, CID: B105E00D, PID: 001BB002 DWT
T3CD0 000:335.522   CPU_ReadMem(32 bytes @ 0xE0002FE0)
T3CD0 000:343.263   ROMTbl[0][2]: E0002000, CID: B105E00D, PID: 000BB003 FPB
T3CD0 000:343.288   CPU_ReadMem(32 bytes @ 0xE0000FE0)
T3CD0 000:351.230   ROMTbl[0][3]: E0000000, CID: B105E00D, PID: 001BB001 ITM
T3CD0 000:351.255   CPU_ReadMem(32 bytes @ 0xE0040FE0)
T3CD0 000:358.683   ROMTbl[0][4]: E0040000, CID: B105900D, PID: 001BB923 TPIU-Lite
T3CD0 000:358.711   CPU_ReadMem(32 bytes @ 0xE0041FE0)
T3CD0 000:366.277   ROMTbl[0][5]: E0041000, CID: B105900D, PID: 101BB924 ETM-M3
T3CD0 000:366.490 - 275.283ms returns 0x1BA01477
T3CD0 000:366.506 JLINK_GetDLLVersion()
T3CD0 000:366.510 - 0.007ms returns 68600
T3CD0 000:366.518 JLINK_CORE_GetFound()
T3CD0 000:366.522 - 0.006ms returns 0x30000FF
T3CD0 000:366.529 JLINK_GetDebugInfo(0x100 = JLINKARM_ROM_TABLE_ADDR_INDEX)
T3CD0 000:366.535   Value=0xE00FF000
T3CD0 000:366.542 - 0.014ms returns 0
T3CD0 000:373.951 JLINK_GetDebugInfo(0x100 = JLINKARM_ROM_TABLE_ADDR_INDEX)
T3CD0 000:373.971   Value=0xE00FF000
T3CD0 000:373.978 - 0.029ms returns 0
T3CD0 000:373.985 JLINK_GetDebugInfo(0x101 = JLINKARM_DEBUG_INFO_ETM_ADDR_INDEX)
T3CD0 000:373.990   Value=0xE0041000
T3CD0 000:373.996 - 0.013ms returns 0
T3CD0 000:374.008 JLINK_ReadMemEx(0xE0041FD0, 0x20 Bytes, Flags = 0x02000004)
T3CD0 000:374.030   CPU_ReadMem(32 bytes @ 0xE0041FD0)
T3CD0 000:374.331   Data:  04 00 00 00 00 00 00 00 00 00 00 00 00 00 00 00 ...
T3CD0 000:374.341 - 0.335ms returns 32 (0x20)
T3CD0 000:374.348 JLINK_GetDebugInfo(0x102 = JLINKARM_DEBUG_INFO_MTB_ADDR_INDEX)
T3CD0 000:374.353   Value=0x00000000
T3CD0 000:374.359 - 0.013ms returns 0
T3CD0 000:374.365 JLINK_GetDebugInfo(0x103 = JLINKARM_DEBUG_INFO_TPIU_ADDR_INDEX)
T3CD0 000:374.370   Value=0xE0040000
T3CD0 000:374.376 - 0.013ms returns 0
T3CD0 000:374.381 JLINK_GetDebugInfo(0x104 = JLINKARM_DEBUG_INFO_ITM_ADDR_INDEX)
T3CD0 000:374.386   Value=0xE0000000
T3CD0 000:374.392 - 0.013ms returns 0
T3CD0 000:374.398 JLINK_GetDebugInfo(0x105 = JLINKARM_DEBUG_INFO_DWT_ADDR_INDEX)
T3CD0 000:374.402   Value=0xE0001000
T3CD0 000:374.409 - 0.013ms returns 0
T3CD0 000:374.414 JLINK_GetDebugInfo(0x106 = JLINKARM_DEBUG_INFO_FPB_ADDR_INDEX)
T3CD0 000:374.419   Value=0xE0002000
T3CD0 000:374.425 - 0.013ms returns 0
T3CD0 000:374.430 JLINK_GetDebugInfo(0x107 = JLINKARM_DEBUG_INFO_NVIC_ADDR_INDEX)
T3CD0 000:374.435   Value=0xE000E000
T3CD0 000:374.441 - 0.013ms returns 0
T3CD0 000:374.447 JLINK_GetDebugInfo(0x10C = JLINKARM_DEBUG_INFO_DBG_ADDR_INDEX)
T3CD0 000:374.451   Value=0xE000EDF0
T3CD0 000:374.458 - 0.013ms returns 0
T3CD0 000:374.463 JLINK_GetDebugInfo(0x01 = Unknown)
T3CD0 000:374.468   Value=0x00000000
T3CD0 000:374.474 - 0.013ms returns 0
T3CD0 000:374.480 JLINK_ReadMemU32(0xE000ED00, 0x1 Items)
T3CD0 000:374.489   CPU_ReadMem(4 bytes @ 0xE000ED00)
T3CD0 000:374.682   Data:  31 C2 1F 41
T3CD0 000:374.692   Debug reg: CPUID
T3CD0 000:374.698 - 0.220ms returns 1 (0x1)
T3CD0 000:374.705 JLINK_GetDebugInfo(0x10F = JLINKARM_DEBUG_INFO_HAS_CORTEX_M_SECURITY_EXT_INDEX)
T3CD0 000:374.710   Value=0x00000000
T3CD0 000:374.716 - 0.013ms returns 0
T3CD0 000:374.722 JLINK_HasError()
T3CD0 000:374.729 JLINK_SetResetType(JLINKARM_CM3_RESET_TYPE_NORMAL)
T3CD0 000:374.733 - 0.007ms returns JLINKARM_CM3_RESET_TYPE_NORMAL
T3CD0 000:374.739 JLINK_Reset()
T3CD0 000:374.752   CPU is running
T3CD0 000:374.760   CPU_WriteMem(4 bytes @ 0xE000EDF0)
T3CD0 000:374.978   CPU is running
T3CD0 000:374.991   CPU_WriteMem(4 bytes @ 0xE000EDFC)
T3CD0 000:382.740   Reset: Halt core after reset via DEMCR.VC_CORERESET.
T3CD0 000:390.372   Reset: Reset device via AIRCR.SYSRESETREQ.
T3CD0 000:390.396   CPU is running
T3CD0 000:390.406   CPU_WriteMem(4 bytes @ 0xE000ED0C)
T3CD0 000:443.701   CPU_ReadMem(4 bytes @ 0xE000EDF0)
T3CD0 000:443.976   CPU_ReadMem(4 bytes @ 0xE000EDF0)
T3CD0 000:444.248   CPU is running
T3CD0 000:444.257   CPU_WriteMem(4 bytes @ 0xE000EDF0)
T3CD0 000:444.499   CPU is running
T3CD0 000:444.508   CPU_WriteMem(4 bytes @ 0xE000EDFC)
T3CD0 000:450.317   CPU_ReadMem(4 bytes @ 0xE000EDF0)
T3CD0 000:452.252   CPU_WriteMem(4 bytes @ 0xE0002000)
T3CD0 000:452.449   CPU_ReadMem(4 bytes @ 0xE000EDFC)
T3CD0 000:452.650   CPU_ReadMem(4 bytes @ 0xE0001000)
T3CD0 000:452.877 - 78.142ms
T3CD0 000:452.891 JLINK_Halt()
T3CD0 000:452.896 - 0.007ms returns 0x00
T3CD0 000:452.903 JLINK_ReadMemU32(0xE000EDF0, 0x1 Items)
T3CD0 000:452.913   CPU_ReadMem(4 bytes @ 0xE000EDF0)
T3CD0 000:453.109   Data:  03 00 03 00
T3CD0 000:453.118   Debug reg: DHCSR
T3CD0 000:453.124 - 0.223ms returns 1 (0x1)
T3CD0 000:453.134 JLINK_WriteU32_64(0xE000EDF0, 0xA05F0003)
T3CD0 000:453.141   Debug reg: DHCSR
T3CD0 000:453.157   CPU_WriteMem(4 bytes @ 0xE000EDF0)
T3CD0 000:453.378 - 0.249ms returns 0 (0x00000000)
T3CD0 000:453.390 JLINK_WriteU32_64(0xE000EDFC, 0x01000000)
T3CD0 000:453.399   Debug reg: DEMCR
T3CD0 000:453.410   CPU_WriteMem(4 bytes @ 0xE000EDFC)
T3CD0 000:453.605 - 0.220ms returns 0 (0x00000000)
T3CD0 000:482.786 JLINK_GetHWStatus(...)
T3CD0 000:482.978 - 0.200ms returns 0
T3CD0 000:506.765 JLINK_GetNumBPUnits(Type = 0xFFFFFF00)
T3CD0 000:506.780 - 0.017ms returns 0x06
T3CD0 000:506.787 JLINK_GetNumBPUnits(Type = 0xF0)
T3CD0 000:506.792 - 0.007ms returns 0x2000
T3CD0 000:506.797 JLINK_GetNumWPUnits()
T3CD0 000:506.802 - 0.006ms returns 4
T3CD0 000:529.767 JLINK_GetSpeed()
T3CD0 000:529.783 - 0.019ms returns 5000
T3CD0 000:544.837 JLINK_ReadMemU32(0xE000E004, 0x1 Items)
T3CD0 000:544.866   CPU_ReadMem(4 bytes @ 0xE000E004)
T3CD0 000:545.061   Data:  01 00 00 00
T3CD0 000:545.074 - 0.239ms returns 1 (0x1)
T3CD0 000:545.082 JLINK_ReadMemU32(0xE000E004, 0x1 Items)
T3CD0 000:545.092   CPU_ReadMem(4 bytes @ 0xE000E004)
T3CD0 000:545.270   Data:  01 00 00 00
T3CD0 000:545.278 - 0.198ms returns 1 (0x1)
T3CD0 000:545.285 JLINK_WriteMemEx(0xE0001000, 0x0000001C Bytes, Flags = 0x02000004)
T3CD0 000:545.291   Data:  01 00 00 00 00 00 00 00 00 00 00 00 00 00 00 00 ...
T3CD0 000:545.505   CPU_WriteMem(28 bytes @ 0xE0001000)
T3CD0 000:545.749 - 0.467ms returns 0x1C
T3CD0 000:545.760 JLINK_Halt()
T3CD0 000:545.765 - 0.007ms returns 0x00
T3CD0 000:545.771 JLINK_IsHalted()
T3CD0 000:545.776 - 0.007ms returns TRUE
T3CD0 000:547.899 JLINK_WriteMem(0x20000000, 0x164 Bytes, ...)
T3CD0 000:547.909   Data:  00 BE 0A E0 0D 78 2D 06 68 40 08 24 40 00 00 D3 ...
T3CD0 000:548.171   CPU_WriteMem(356 bytes @ 0x20000000)
T3CD0 000:549.515 - 1.624ms returns 0x164
T3CD0 000:549.551 JLINK_HasError()
T3CD0 000:549.559 JLINK_WriteReg(R0, 0x08000000)
T3CD0 000:549.567 - 0.010ms returns 0
T3CD0 000:549.573 JLINK_WriteReg(R1, 0x00B71B00)
T3CD0 000:549.579 - 0.008ms returns 0
T3CD0 000:549.586 JLINK_WriteReg(R2, 0x00000001)
T3CD0 000:549.592 - 0.010ms returns 0
T3CD0 000:549.600 JLINK_WriteReg(R3, 0x00000000)
T3CD0 000:549.605 - 0.007ms returns 0
T3CD0 000:549.610 JLINK_WriteReg(R4, 0x00000000)
T3CD0 000:549.615 - 0.007ms returns 0
T3CD0 000:549.621 JLINK_WriteReg(R5, 0x00000000)
T3CD0 000:549.626 - 0.007ms returns 0
T3CD0 000:549.631 JLINK_WriteReg(R6, 0x00000000)
T3CD0 000:549.639 - 0.009ms returns 0
T3CD0 000:549.644 JLINK_WriteReg(R7, 0x00000000)
T3CD0 000:549.649 - 0.007ms returns 0
T3CD0 000:549.655 JLINK_WriteReg(R8, 0x00000000)
T3CD0 000:549.666 - 0.013ms returns 0
T3CD0 000:549.672 JLINK_WriteReg(R9, 0x20000160)
T3CD0 000:549.677 - 0.007ms returns 0
T3CD0 000:549.683 JLINK_WriteReg(R10, 0x00000000)
T3CD0 000:549.688 - 0.007ms returns 0
T3CD0 000:549.693 JLINK_WriteReg(R11, 0x00000000)
T3CD0 000:549.698 - 0.007ms returns 0
T3CD0 000:549.704 JLINK_WriteReg(R12, 0x00000000)
T3CD0 000:549.709 - 0.007ms returns 0
T3CD0 000:549.714 JLINK_WriteReg(R13 (SP), 0x20001000)
T3CD0 000:549.720 - 0.007ms returns 0
T3CD0 000:549.725 JLINK_WriteReg(R14, 0x20000001)
T3CD0 000:549.730 - 0.007ms returns 0
T3CD0 000:549.736 JLINK_WriteReg(R15 (PC), 0x20000038)
T3CD0 000:549.743 - 0.009ms returns 0
T3CD0 000:549.748 JLINK_WriteReg(XPSR, 0x01000000)
T3CD0 000:549.753 - 0.007ms returns 0
T3CD0 000:549.759 JLINK_WriteReg(MSP, 0x20001000)
T3CD0 000:549.764 - 0.007ms returns 0
T3CD0 000:549.773 JLINK_WriteReg(PSP, 0x20001000)
T3CD0 000:549.780 - 0.009ms returns 0
T3CD0 000:549.785 JLINK_WriteReg(CFBP, 0x00000000)
T3CD0 000:549.790 - 0.007ms returns 0
T3CD0 000:549.796 JLINK_SetBPEx(Addr = 0x20000000, Type = 0xFFFFFFF2)
T3CD0 000:549.805   CPU_ReadMem(2 bytes @ 0x20000000)
T3CD0 000:550.004 - 0.212ms returns 0x00000001
T3CD0 000:550.012 JLINK_Go()
T3CD0 000:550.020   CPU_WriteMem(2 bytes @ 0x20000000)
T3CD0 000:550.253   CPU_ReadMem(4 bytes @ 0xE0001000)
T3CD0 000:550.498   CPU_WriteMem(4 bytes @ 0xE0002008)
T3CD0 000:550.507   CPU_WriteMem(4 bytes @ 0xE000200C)
T3CD0 000:550.514   CPU_WriteMem(4 bytes @ 0xE0002010)
T3CD0 000:550.520   CPU_WriteMem(4 bytes @ 0xE0002014)
T3CD0 000:550.527   CPU_WriteMem(4 bytes @ 0xE0002018)
T3CD0 000:550.533   CPU_WriteMem(4 bytes @ 0xE000201C)
T3CD0 000:551.262   CPU_WriteMem(4 bytes @ 0xE0001004)
T3CD0 000:553.056 - 3.049ms
T3CD0 000:553.067 JLINK_IsHalted()
T3CD0 000:554.725   CPU_ReadMem(2 bytes @ 0x20000000)
T3CD0 000:554.926 - 1.864ms returns TRUE
T3CD0 000:554.936 JLINK_ReadReg(R15 (PC))
T3CD0 000:554.943 - 0.009ms returns 0x20000000
T3CD0 000:554.949 JLINK_ClrBPEx(BPHandle = 0x00000001)
T3CD0 000:554.955 - 0.007ms returns 0x00
T3CD0 000:554.960 JLINK_ReadReg(R0)
T3CD0 000:554.965 - 0.007ms returns 0x00000000
T3CD0 000:555.227 JLINK_HasError()
T3CD0 000:555.236 JLINK_WriteReg(R0, 0x08000000)
T3CD0 000:555.243 - 0.009ms returns 0
T3CD0 000:555.249 JLINK_WriteReg(R1, 0x00B71B00)
T3CD0 000:555.254 - 0.007ms returns 0
T3CD0 000:555.259 JLINK_WriteReg(R2, 0x00000001)
T3CD0 000:555.264 - 0.007ms returns 0
T3CD0 000:555.270 JLINK_WriteReg(R3, 0x00000000)
T3CD0 000:555.275 - 0.007ms returns 0
T3CD0 000:555.280 JLINK_WriteReg(R4, 0x00000000)
T3CD0 000:555.285 - 0.007ms returns 0
T3CD0 000:555.291 JLINK_WriteReg(R5, 0x00000000)
T3CD0 000:555.295 - 0.007ms returns 0
T3CD0 000:555.301 JLINK_WriteReg(R6, 0x00000000)
T3CD0 000:555.306 - 0.007ms returns 0
T3CD0 000:555.311 JLINK_WriteReg(R7, 0x00000000)
T3CD0 000:555.316 - 0.007ms returns 0
T3CD0 000:555.322 JLINK_WriteReg(R8, 0x00000000)
T3CD0 000:555.327 - 0.007ms returns 0
T3CD0 000:555.332 JLINK_WriteReg(R9, 0x20000160)
T3CD0 000:555.337 - 0.007ms returns 0
T3CD0 000:555.343 JLINK_WriteReg(R10, 0x00000000)
T3CD0 000:555.348 - 0.007ms returns 0
T3CD0 000:555.353 JLINK_WriteReg(R11, 0x00000000)
T3CD0 000:555.358 - 0.007ms returns 0
T3CD0 000:555.364 JLINK_WriteReg(R12, 0x00000000)
T3CD0 000:555.369 - 0.007ms returns 0
T3CD0 000:555.374 JLINK_WriteReg(R13 (SP), 0x20001000)
T3CD0 000:555.379 - 0.007ms returns 0
T3CD0 000:555.385 JLINK_WriteReg(R14, 0x20000001)
T3CD0 000:555.390 - 0.007ms returns 0
T3CD0 000:555.396 JLINK_WriteReg(R15 (PC), 0x2000007C)
T3CD0 000:555.401 - 0.007ms returns 0
T3CD0 000:555.406 JLINK_WriteReg(XPSR, 0x01000000)
T3CD0 000:555.411 - 0.007ms returns 0
T3CD0 000:555.416 JLINK_WriteReg(MSP, 0x20001000)
T3CD0 000:555.421 - 0.007ms returns 0
T3CD0 000:555.427 JLINK_WriteReg(PSP, 0x20001000)
T3CD0 000:555.432 - 0.007ms returns 0
T3CD0 000:555.437 JLINK_WriteReg(CFBP, 0x00000000)
T3CD0 000:555.442 - 0.007ms returns 0
T3CD0 000:555.448 JLINK_SetBPEx(Addr = 0x20000000, Type = 0xFFFFFFF2)
T3CD0 000:555.454 - 0.008ms returns 0x00000002
T3CD0 000:555.459 JLINK_Go()
T3CD0 000:555.469   CPU_ReadMem(4 bytes @ 0xE0001000)
T3CD0 000:557.181 - 1.726ms
T3CD0 000:557.191 JLINK_IsHalted()
T3CD0 000:557.372 - 0.183ms returns FALSE
T3CD0 000:557.381 JLINK_HasError()
T3CD0 000:570.991 JLINK_IsHalted()
T3CD0 000:571.222 - 0.235ms returns FALSE
T3CD0 000:571.233 JLINK_HasError()
T3CD0 000:572.496 JLINK_IsHalted()
T3CD0 000:572.694 - 0.201ms returns FALSE
T3CD0 000:572.702 JLINK_HasError()
T3CD0 000:574.515 JLINK_IsHalted()
T3CD0 000:574.773 - 0.262ms returns FALSE
T3CD0 000:574.781 JLINK_HasError()
T3CD0 000:576.516 JLINK_IsHalted()
T3CD0 000:576.774 - 0.262ms returns FALSE
T3CD0 000:576.783 JLINK_HasError()
T3CD0 000:578.479 JLINK_IsHalted()
T3CD0 000:578.673 - 0.197ms returns FALSE
T3CD0 000:578.681 JLINK_HasError()
T3CD0 000:580.474 JLINK_IsHalted()
T3CD0 000:582.078   CPU_ReadMem(2 bytes @ 0x20000000)
T3CD0 000:582.277 - 1.807ms returns TRUE
T3CD0 000:582.287 JLINK_ReadReg(R15 (PC))
T3CD0 000:582.294 - 0.009ms returns 0x20000000
T3CD0 000:582.300 JLINK_ClrBPEx(BPHandle = 0x00000002)
T3CD0 000:582.305 - 0.007ms returns 0x00
T3CD0 000:582.311 JLINK_ReadReg(R0)
T3CD0 000:582.316 - 0.007ms returns 0x00000000
T3CD0 000:633.822 JLINK_HasError()
T3CD0 000:633.841 JLINK_WriteReg(R0, 0x00000001)
T3CD0 000:633.850 - 0.012ms returns 0
T3CD0 000:633.857 JLINK_WriteReg(R1, 0x00B71B00)
T3CD0 000:633.862 - 0.007ms returns 0
T3CD0 000:633.867 JLINK_WriteReg(R2, 0x00000001)
T3CD0 000:633.872 - 0.007ms returns 0
T3CD0 000:633.878 JLINK_WriteReg(R3, 0x00000000)
T3CD0 000:633.882 - 0.007ms returns 0
T3CD0 000:633.888 JLINK_WriteReg(R4, 0x00000000)
T3CD0 000:633.893 - 0.007ms returns 0
T3CD0 000:633.898 JLINK_WriteReg(R5, 0x00000000)
T3CD0 000:633.903 - 0.007ms returns 0
T3CD0 000:633.908 JLINK_WriteReg(R6, 0x00000000)
T3CD0 000:633.913 - 0.007ms returns 0
T3CD0 000:633.919 JLINK_WriteReg(R7, 0x00000000)
T3CD0 000:633.923 - 0.007ms returns 0
T3CD0 000:633.929 JLINK_WriteReg(R8, 0x00000000)
T3CD0 000:633.934 - 0.007ms returns 0
T3CD0 000:633.939 JLINK_WriteReg(R9, 0x20000160)
T3CD0 000:633.944 - 0.006ms returns 0
T3CD0 000:633.949 JLINK_WriteReg(R10, 0x00000000)
T3CD0 000:633.954 - 0.007ms returns 0
T3CD0 000:633.959 JLINK_WriteReg(R11, 0x00000000)
T3CD0 000:633.964 - 0.007ms returns 0
T3CD0 000:633.970 JLINK_WriteReg(R12, 0x00000000)
T3CD0 000:633.974 - 0.007ms returns 0
T3CD0 000:633.980 JLINK_WriteReg(R13 (SP), 0x20001000)
T3CD0 000:634.005 - 0.027ms returns 0
T3CD0 000:634.013 JLINK_WriteReg(R14, 0x20000001)
T3CD0 000:634.018 - 0.007ms returns 0
T3CD0 000:634.024 JLINK_WriteReg(R15 (PC), 0x2000006A)
T3CD0 000:634.030 - 0.007ms returns 0
T3CD0 000:634.036 JLINK_WriteReg(XPSR, 0x01000000)
T3CD0 000:634.041 - 0.007ms returns 0
T3CD0 000:634.048 JLINK_WriteReg(MSP, 0x20001000)
T3CD0 000:634.053 - 0.007ms returns 0
T3CD0 000:634.059 JLINK_WriteReg(PSP, 0x20001000)
T3CD0 000:634.064 - 0.007ms returns 0
T3CD0 000:634.071 JLINK_WriteReg(CFBP, 0x00000000)
T3CD0 000:634.076 - 0.007ms returns 0
T3CD0 000:634.082 JLINK_SetBPEx(Addr = 0x20000000, Type = 0xFFFFFFF2)
T3CD0 000:634.089 - 0.008ms returns 0x00000003
T3CD0 000:634.095 JLINK_Go()
T3CD0 000:634.109   CPU_ReadMem(4 bytes @ 0xE0001000)
T3CD0 000:635.799 - 1.708ms
T3CD0 000:635.810 JLINK_IsHalted()
T3CD0 000:637.445   CPU_ReadMem(2 bytes @ 0x20000000)
T3CD0 000:637.753 - 1.951ms returns TRUE
T3CD0 000:637.769 JLINK_ReadReg(R15 (PC))
T3CD0 000:637.776 - 0.010ms returns 0x20000000
T3CD0 000:637.783 JLINK_ClrBPEx(BPHandle = 0x00000003)
T3CD0 000:637.789 - 0.008ms returns 0x00
T3CD0 000:637.796 JLINK_ReadReg(R0)
T3CD0 000:637.814 - 0.020ms returns 0x00000000
T3CD0 000:647.440 JLINK_WriteMem(0x20000000, 0x164 Bytes, ...)
T3CD0 000:647.455   Data:  00 BE 0A E0 0D 78 2D 06 68 40 08 24 40 00 00 D3 ...
T3CD0 000:647.475   CPU_WriteMem(356 bytes @ 0x20000000)
T3CD0 000:648.715 - 1.283ms returns 0x164
T3CD0 000:648.750 JLINK_HasError()
T3CD0 000:648.758 JLINK_WriteReg(R0, 0x08000000)
T3CD0 000:648.765 - 0.010ms returns 0
T3CD0 000:648.771 JLINK_WriteReg(R1, 0x00B71B00)
T3CD0 000:648.777 - 0.007ms returns 0
T3CD0 000:648.782 JLINK_WriteReg(R2, 0x00000002)
T3CD0 000:648.787 - 0.007ms returns 0
T3CD0 000:648.793 JLINK_WriteReg(R3, 0x00000000)
T3CD0 000:648.798 - 0.007ms returns 0
T3CD0 000:648.803 JLINK_WriteReg(R4, 0x00000000)
T3CD0 000:648.808 - 0.007ms returns 0
T3CD0 000:648.814 JLINK_WriteReg(R5, 0x00000000)
T3CD0 000:648.819 - 0.007ms returns 0
T3CD0 000:648.824 JLINK_WriteReg(R6, 0x00000000)
T3CD0 000:648.829 - 0.007ms returns 0
T3CD0 000:648.835 JLINK_WriteReg(R7, 0x00000000)
T3CD0 000:648.840 - 0.007ms returns 0
T3CD0 000:648.845 JLINK_WriteReg(R8, 0x00000000)
T3CD0 000:648.850 - 0.007ms returns 0
T3CD0 000:648.856 JLINK_WriteReg(R9, 0x20000160)
T3CD0 000:648.861 - 0.007ms returns 0
T3CD0 000:648.866 JLINK_WriteReg(R10, 0x00000000)
T3CD0 000:648.912 - 0.050ms returns 0
T3CD0 000:648.921 JLINK_WriteReg(R11, 0x00000000)
T3CD0 000:648.926 - 0.007ms returns 0
T3CD0 000:648.931 JLINK_WriteReg(R12, 0x00000000)
T3CD0 000:648.936 - 0.007ms returns 0
T3CD0 000:648.942 JLINK_WriteReg(R13 (SP), 0x20001000)
T3CD0 000:648.948 - 0.008ms returns 0
T3CD0 000:648.953 JLINK_WriteReg(R14, 0x20000001)
T3CD0 000:648.958 - 0.007ms returns 0
T3CD0 000:648.964 JLINK_WriteReg(R15 (PC), 0x20000038)
T3CD0 000:648.969 - 0.007ms returns 0
T3CD0 000:648.975 JLINK_WriteReg(XPSR, 0x01000000)
T3CD0 000:648.980 - 0.007ms returns 0
T3CD0 000:648.985 JLINK_WriteReg(MSP, 0x20001000)
T3CD0 000:648.990 - 0.007ms returns 0
T3CD0 000:648.996 JLINK_WriteReg(PSP, 0x20001000)
T3CD0 000:649.001 - 0.007ms returns 0
T3CD0 000:649.006 JLINK_WriteReg(CFBP, 0x00000000)
T3CD0 000:649.011 - 0.007ms returns 0
T3CD0 000:649.017 JLINK_SetBPEx(Addr = 0x20000000, Type = 0xFFFFFFF2)
T3CD0 000:649.026   CPU_ReadMem(2 bytes @ 0x20000000)
T3CD0 000:649.228 - 0.215ms returns 0x00000004
T3CD0 000:649.237 JLINK_Go()
T3CD0 000:649.244   CPU_WriteMem(2 bytes @ 0x20000000)
T3CD0 000:649.425   CPU_ReadMem(4 bytes @ 0xE0001000)
T3CD0 000:651.181 - 1.950ms
T3CD0 000:651.192 JLINK_IsHalted()
T3CD0 000:652.953   CPU_ReadMem(2 bytes @ 0x20000000)
T3CD0 000:653.186 - 2.000ms returns TRUE
T3CD0 000:653.198 JLINK_ReadReg(R15 (PC))
T3CD0 000:653.206 - 0.010ms returns 0x20000000
T3CD0 000:653.212 JLINK_ClrBPEx(BPHandle = 0x00000004)
T3CD0 000:653.218 - 0.007ms returns 0x00
T3CD0 000:653.223 JLINK_ReadReg(R0)
T3CD0 000:653.228 - 0.007ms returns 0x00000000
T3CD0 000:653.510 JLINK_WriteMem(0x20000164, 0x29C Bytes, ...)
T3CD0 000:653.520   Data:  98 10 00 20 49 01 00 08 D5 27 00 08 D7 1B 00 08 ...
T3CD0 000:653.535   CPU_WriteMem(668 bytes @ 0x20000164)
T3CD0 000:655.685 - 2.180ms returns 0x29C
T3CD0 000:655.696 JLINK_WriteMem(0x20000400, 0x164 Bytes, ...)
T3CD0 000:655.701   Data:  78 0F 06 D0 BA F1 58 0F 03 D0 B9 F1 00 0F 10 D0 ...
T3CD0 000:655.716   CPU_WriteMem(356 bytes @ 0x20000400)
T3CD0 000:656.908 - 1.215ms returns 0x164
T3CD0 000:656.917 JLINK_HasError()
T3CD0 000:656.923 JLINK_WriteReg(R0, 0x08000000)
T3CD0 000:656.930 - 0.008ms returns 0
T3CD0 000:656.935 JLINK_WriteReg(R1, 0x00000400)
T3CD0 000:656.940 - 0.007ms returns 0
T3CD0 000:656.946 JLINK_WriteReg(R2, 0x20000164)
T3CD0 000:656.951 - 0.007ms returns 0
T3CD0 000:656.957 JLINK_WriteReg(R3, 0x00000000)
T3CD0 000:656.961 - 0.007ms returns 0
T3CD0 000:656.967 JLINK_WriteReg(R4, 0x00000000)
T3CD0 000:656.972 - 0.007ms returns 0
T3CD0 000:656.977 JLINK_WriteReg(R5, 0x00000000)
T3CD0 000:656.982 - 0.007ms returns 0
T3CD0 000:656.988 JLINK_WriteReg(R6, 0x00000000)
T3CD0 000:656.993 - 0.007ms returns 0
T3CD0 000:656.998 JLINK_WriteReg(R7, 0x00000000)
T3CD0 000:657.003 - 0.007ms returns 0
T3CD0 000:657.009 JLINK_WriteReg(R8, 0x00000000)
T3CD0 000:657.013 - 0.007ms returns 0
T3CD0 000:657.019 JLINK_WriteReg(R9, 0x20000160)
T3CD0 000:657.024 - 0.007ms returns 0
T3CD0 000:657.029 JLINK_WriteReg(R10, 0x00000000)
T3CD0 000:657.034 - 0.007ms returns 0
T3CD0 000:657.040 JLINK_WriteReg(R11, 0x00000000)
T3CD0 000:657.045 - 0.007ms returns 0
T3CD0 000:657.050 JLINK_WriteReg(R12, 0x00000000)
T3CD0 000:657.055 - 0.007ms returns 0
T3CD0 000:657.061 JLINK_WriteReg(R13 (SP), 0x20001000)
T3CD0 000:657.066 - 0.007ms returns 0
T3CD0 000:657.071 JLINK_WriteReg(R14, 0x20000001)
T3CD0 000:657.076 - 0.007ms returns 0
T3CD0 000:657.082 JLINK_WriteReg(R15 (PC), 0x200000F4)
T3CD0 000:657.087 - 0.007ms returns 0
T3CD0 000:657.093 JLINK_WriteReg(XPSR, 0x01000000)
T3CD0 000:657.098 - 0.007ms returns 0
T3CD0 000:657.103 JLINK_WriteReg(MSP, 0x20001000)
T3CD0 000:657.108 - 0.007ms returns 0
T3CD0 000:657.114 JLINK_WriteReg(PSP, 0x20001000)
T3CD0 000:657.118 - 0.007ms returns 0
T3CD0 000:657.124 JLINK_WriteReg(CFBP, 0x00000000)
T3CD0 000:657.129 - 0.007ms returns 0
T3CD0 000:657.135 JLINK_SetBPEx(Addr = 0x20000000, Type = 0xFFFFFFF2)
T3CD0 000:657.140 - 0.008ms returns 0x00000005
T3CD0 000:657.146 JLINK_Go()
T3CD0 000:657.159   CPU_ReadMem(4 bytes @ 0xE0001000)
T3CD0 000:658.859 - 1.721ms
T3CD0 000:658.873 JLINK_IsHalted()
T3CD0 000:659.088 - 0.221ms returns FALSE
T3CD0 000:659.100 JLINK_HasError()
T3CD0 000:664.436 JLINK_IsHalted()
T3CD0 000:664.656 - 0.228ms returns FALSE
T3CD0 000:664.670 JLINK_HasError()
T3CD0 000:666.450 JLINK_IsHalted()
T3CD0 000:666.722 - 0.276ms returns FALSE
T3CD0 000:666.731 JLINK_HasError()
T3CD0 000:668.448 JLINK_IsHalted()
T3CD0 000:668.719 - 0.275ms returns FALSE
T3CD0 000:668.728 JLINK_HasError()
T3CD0 000:670.461 JLINK_IsHalted()
T3CD0 000:670.701 - 0.246ms returns FALSE
T3CD0 000:670.713 JLINK_HasError()
T3CD0 000:672.442 JLINK_IsHalted()
T3CD0 000:672.650 - 0.213ms returns FALSE
T3CD0 000:672.661 JLINK_HasError()
T3CD0 000:674.444 JLINK_IsHalted()
T3CD0 000:674.724 - 0.287ms returns FALSE
T3CD0 000:674.737 JLINK_HasError()
T3CD0 000:676.449 JLINK_IsHalted()
T3CD0 000:676.671 - 0.228ms returns FALSE
T3CD0 000:676.683 JLINK_HasError()
T3CD0 000:678.543 JLINK_IsHalted()
T3CD0 000:678.770 - 0.232ms returns FALSE
T3CD0 000:678.781 JLINK_HasError()
T3CD0 000:680.533 JLINK_IsHalted()
T3CD0 000:680.785 - 0.258ms returns FALSE
T3CD0 000:680.796 JLINK_HasError()
T3CD0 000:681.990 JLINK_IsHalted()
T3CD0 000:682.213 - 0.229ms returns FALSE
T3CD0 000:682.225 JLINK_HasError()
T3CD0 000:684.119 JLINK_IsHalted()
T3CD0 000:684.345 - 0.232ms returns FALSE
T3CD0 000:684.361 JLINK_HasError()
T3CD0 000:686.089 JLINK_IsHalted()
T3CD0 000:686.296 - 0.213ms returns FALSE
T3CD0 000:686.307 JLINK_HasError()
T3CD0 000:688.042 JLINK_IsHalted()
T3CD0 000:688.278 - 0.242ms returns FALSE
T3CD0 000:688.290 JLINK_HasError()
T3CD0 000:689.984 JLINK_IsHalted()
T3CD0 000:691.681   CPU_ReadMem(2 bytes @ 0x20000000)
T3CD0 000:691.905 - 1.927ms returns TRUE
T3CD0 000:691.917 JLINK_ReadReg(R15 (PC))
T3CD0 000:691.925 - 0.010ms returns 0x20000000
T3CD0 000:691.931 JLINK_ClrBPEx(BPHandle = 0x00000005)
T3CD0 000:691.937 - 0.009ms returns 0x00
T3CD0 000:691.944 JLINK_ReadReg(R0)
T3CD0 000:691.949 - 0.007ms returns 0x00000000
T3CD0 000:692.430 JLINK_WriteMem(0x20000164, 0x29C Bytes, ...)
T3CD0 000:692.441   Data:  F0 BC 70 47 81 F0 00 41 AA E7 80 F0 00 40 A7 E7 ...
T3CD0 000:692.455   CPU_WriteMem(668 bytes @ 0x20000164)
T3CD0 000:694.648 - 2.247ms returns 0x29C
T3CD0 000:694.682 JLINK_WriteMem(0x20000400, 0x164 Bytes, ...)
T3CD0 000:694.688   Data:  06 00 4C EB 08 51 10 EB 0A 00 41 EB 0B 01 BD E8 ...
T3CD0 000:694.700   CPU_WriteMem(356 bytes @ 0x20000400)
T3CD0 000:695.908 - 1.230ms returns 0x164
T3CD0 000:695.919 JLINK_HasError()
T3CD0 000:695.925 JLINK_WriteReg(R0, 0x08000400)
T3CD0 000:695.932 - 0.010ms returns 0
T3CD0 000:695.939 JLINK_WriteReg(R1, 0x00000400)
T3CD0 000:695.944 - 0.007ms returns 0
T3CD0 000:695.949 JLINK_WriteReg(R2, 0x20000164)
T3CD0 000:695.954 - 0.007ms returns 0
T3CD0 000:695.960 JLINK_WriteReg(R3, 0x00000000)
T3CD0 000:695.965 - 0.007ms returns 0
T3CD0 000:695.970 JLINK_WriteReg(R4, 0x00000000)
T3CD0 000:695.975 - 0.007ms returns 0
T3CD0 000:695.981 JLINK_WriteReg(R5, 0x00000000)
T3CD0 000:695.986 - 0.007ms returns 0
T3CD0 000:695.991 JLINK_WriteReg(R6, 0x00000000)
T3CD0 000:695.996 - 0.007ms returns 0
T3CD0 000:696.001 JLINK_WriteReg(R7, 0x00000000)
T3CD0 000:696.006 - 0.007ms returns 0
T3CD0 000:696.012 JLINK_WriteReg(R8, 0x00000000)
T3CD0 000:696.017 - 0.007ms returns 0
T3CD0 000:696.022 JLINK_WriteReg(R9, 0x20000160)
T3CD0 000:696.027 - 0.007ms returns 0
T3CD0 000:696.033 JLINK_WriteReg(R10, 0x00000000)
T3CD0 000:696.038 - 0.007ms returns 0
T3CD0 000:696.043 JLINK_WriteReg(R11, 0x00000000)
T3CD0 000:696.048 - 0.007ms returns 0
T3CD0 000:696.053 JLINK_WriteReg(R12, 0x00000000)
T3CD0 000:696.058 - 0.007ms returns 0
T3CD0 000:696.064 JLINK_WriteReg(R13 (SP), 0x20001000)
T3CD0 000:696.069 - 0.007ms returns 0
T3CD0 000:696.075 JLINK_WriteReg(R14, 0x20000001)
T3CD0 000:696.080 - 0.007ms returns 0
T3CD0 000:696.085 JLINK_WriteReg(R15 (PC), 0x200000F4)
T3CD0 000:696.090 - 0.007ms returns 0
T3CD0 000:696.096 JLINK_WriteReg(XPSR, 0x01000000)
T3CD0 000:696.104 - 0.012ms returns 0
T3CD0 000:696.112 JLINK_WriteReg(MSP, 0x20001000)
T3CD0 000:696.117 - 0.007ms returns 0
T3CD0 000:696.122 JLINK_WriteReg(PSP, 0x20001000)
T3CD0 000:696.127 - 0.007ms returns 0
T3CD0 000:696.133 JLINK_WriteReg(CFBP, 0x00000000)
T3CD0 000:696.138 - 0.007ms returns 0
T3CD0 000:696.143 JLINK_SetBPEx(Addr = 0x20000000, Type = 0xFFFFFFF2)
T3CD0 000:696.149 - 0.008ms returns 0x00000006
T3CD0 000:696.155 JLINK_Go()
T3CD0 000:696.165   CPU_ReadMem(4 bytes @ 0xE0001000)
T3CD0 000:697.929 - 1.780ms
T3CD0 000:697.940 JLINK_IsHalted()
T3CD0 000:698.133 - 0.197ms returns FALSE
T3CD0 000:698.142 JLINK_HasError()
T3CD0 000:699.927 JLINK_IsHalted()
T3CD0 000:700.131 - 0.207ms returns FALSE
T3CD0 000:700.139 JLINK_HasError()
T3CD0 000:701.920 JLINK_IsHalted()
T3CD0 000:702.130 - 0.213ms returns FALSE
T3CD0 000:702.138 JLINK_HasError()
T3CD0 000:703.481 JLINK_IsHalted()
T3CD0 000:703.675 - 0.199ms returns FALSE
T3CD0 000:703.685 JLINK_HasError()
T3CD0 000:704.938 JLINK_IsHalted()
T3CD0 000:705.196 - 0.262ms returns FALSE
T3CD0 000:705.205 JLINK_HasError()
T3CD0 000:706.934 JLINK_IsHalted()
T3CD0 000:707.157 - 0.226ms returns FALSE
T3CD0 000:707.165 JLINK_HasError()
T3CD0 000:708.905 JLINK_IsHalted()
T3CD0 000:709.110 - 0.210ms returns FALSE
T3CD0 000:709.120 JLINK_HasError()
T3CD0 000:710.924 JLINK_IsHalted()
T3CD0 000:711.175 - 0.258ms returns FALSE
T3CD0 000:711.188 JLINK_HasError()
T3CD0 000:712.919 JLINK_IsHalted()
T3CD0 000:713.172 - 0.257ms returns FALSE
T3CD0 000:713.181 JLINK_HasError()
T3CD0 000:714.586 JLINK_IsHalted()
T3CD0 000:714.796 - 0.213ms returns FALSE
T3CD0 000:714.804 JLINK_HasError()
T3CD0 000:715.909 JLINK_IsHalted()
T3CD0 000:716.157 - 0.251ms returns FALSE
T3CD0 000:716.165 JLINK_HasError()
T3CD0 000:717.904 JLINK_IsHalted()
T3CD0 000:718.157 - 0.258ms returns FALSE
T3CD0 000:718.168 JLINK_HasError()
T3CD0 000:719.877 JLINK_IsHalted()
T3CD0 000:720.086 - 0.214ms returns FALSE
T3CD0 000:720.097 JLINK_HasError()
T3CD0 000:721.871 JLINK_IsHalted()
T3CD0 000:722.083 - 0.216ms returns FALSE
T3CD0 000:722.092 JLINK_HasError()
T3CD0 000:723.885 JLINK_IsHalted()
T3CD0 000:724.130 - 0.248ms returns FALSE
T3CD0 000:724.138 JLINK_HasError()
T3CD0 000:725.860 JLINK_IsHalted()
T3CD0 000:726.061 - 0.206ms returns FALSE
T3CD0 000:726.070 JLINK_HasError()
T3CD0 000:727.854 JLINK_IsHalted()
T3CD0 000:728.058 - 0.207ms returns FALSE
T3CD0 000:728.066 JLINK_HasError()
T3CD0 000:729.884 JLINK_IsHalted()
T3CD0 000:731.529   CPU_ReadMem(2 bytes @ 0x20000000)
T3CD0 000:731.754 - 1.875ms returns TRUE
T3CD0 000:731.766 JLINK_ReadReg(R15 (PC))
T3CD0 000:731.773 - 0.010ms returns 0x20000000
T3CD0 000:731.780 JLINK_ClrBPEx(BPHandle = 0x00000006)
T3CD0 000:731.785 - 0.007ms returns 0x00
T3CD0 000:731.791 JLINK_ReadReg(R0)
T3CD0 000:731.796 - 0.007ms returns 0x00000000
T3CD0 000:732.206 JLINK_WriteMem(0x20000164, 0x29C Bytes, ...)
T3CD0 000:732.214   Data:  00 F0 F4 B9 E5 07 00 08 E3 0B 00 08 42 68 42 B1 ...
T3CD0 000:732.227   CPU_WriteMem(668 bytes @ 0x20000164)
T3CD0 000:734.437 - 2.237ms returns 0x29C
T3CD0 000:734.449 JLINK_WriteMem(0x20000400, 0x164 Bytes, ...)
T3CD0 000:734.458   Data:  D0 EB 02 02 63 EB E0 73 00 98 21 46 4F EA E0 74 ...
T3CD0 000:734.469   CPU_WriteMem(356 bytes @ 0x20000400)
T3CD0 000:735.740 - 1.323ms returns 0x164
T3CD0 000:735.778 JLINK_HasError()
T3CD0 000:735.787 JLINK_WriteReg(R0, 0x08000800)
T3CD0 000:735.796 - 0.012ms returns 0
T3CD0 000:735.803 JLINK_WriteReg(R1, 0x00000400)
T3CD0 000:735.809 - 0.007ms returns 0
T3CD0 000:735.816 JLINK_WriteReg(R2, 0x20000164)
T3CD0 000:735.822 - 0.008ms returns 0
T3CD0 000:735.827 JLINK_WriteReg(R3, 0x00000000)
T3CD0 000:735.832 - 0.007ms returns 0
T3CD0 000:735.838 JLINK_WriteReg(R4, 0x00000000)
T3CD0 000:735.843 - 0.007ms returns 0
T3CD0 000:735.848 JLINK_WriteReg(R5, 0x00000000)
T3CD0 000:735.853 - 0.007ms returns 0
T3CD0 000:735.859 JLINK_WriteReg(R6, 0x00000000)
T3CD0 000:735.864 - 0.007ms returns 0
T3CD0 000:735.869 JLINK_WriteReg(R7, 0x00000000)
T3CD0 000:735.880 - 0.013ms returns 0
T3CD0 000:735.886 JLINK_WriteReg(R8, 0x00000000)
T3CD0 000:735.891 - 0.007ms returns 0
T3CD0 000:735.897 JLINK_WriteReg(R9, 0x20000160)
T3CD0 000:735.901 - 0.007ms returns 0
T3CD0 000:735.907 JLINK_WriteReg(R10, 0x00000000)
T3CD0 000:735.912 - 0.007ms returns 0
T3CD0 000:735.918 JLINK_WriteReg(R11, 0x00000000)
T3CD0 000:735.922 - 0.007ms returns 0
T3CD0 000:735.928 JLINK_WriteReg(R12, 0x00000000)
T3CD0 000:735.933 - 0.007ms returns 0
T3CD0 000:735.939 JLINK_WriteReg(R13 (SP), 0x20001000)
T3CD0 000:735.944 - 0.007ms returns 0
T3CD0 000:735.950 JLINK_WriteReg(R14, 0x20000001)
T3CD0 000:735.955 - 0.007ms returns 0
T3CD0 000:735.960 JLINK_WriteReg(R15 (PC), 0x200000F4)
T3CD0 000:735.965 - 0.007ms returns 0
T3CD0 000:735.971 JLINK_WriteReg(XPSR, 0x01000000)
T3CD0 000:735.976 - 0.007ms returns 0
T3CD0 000:735.982 JLINK_WriteReg(MSP, 0x20001000)
T3CD0 000:735.987 - 0.007ms returns 0
T3CD0 000:735.992 JLINK_WriteReg(PSP, 0x20001000)
T3CD0 000:735.997 - 0.007ms returns 0
T3CD0 000:736.003 JLINK_WriteReg(CFBP, 0x00000000)
T3CD0 000:736.008 - 0.007ms returns 0
T3CD0 000:736.013 JLINK_SetBPEx(Addr = 0x20000000, Type = 0xFFFFFFF2)
T3CD0 000:736.019 - 0.008ms returns 0x00000007
T3CD0 000:736.025 JLINK_Go()
T3CD0 000:736.036   CPU_ReadMem(4 bytes @ 0xE0001000)
T3CD0 000:737.803 - 1.786ms
T3CD0 000:737.817 JLINK_IsHalted()
T3CD0 000:738.032 - 0.218ms returns FALSE
T3CD0 000:738.040 JLINK_HasError()
T3CD0 000:739.815 JLINK_IsHalted()
T3CD0 000:740.031 - 0.219ms returns FALSE
T3CD0 000:740.039 JLINK_HasError()
T3CD0 000:741.788 JLINK_IsHalted()
T3CD0 000:742.027 - 0.244ms returns FALSE
T3CD0 000:742.038 JLINK_HasError()
T3CD0 000:743.787 JLINK_IsHalted()
T3CD0 000:744.027 - 0.246ms returns FALSE
T3CD0 000:744.039 JLINK_HasError()
T3CD0 000:745.837 JLINK_IsHalted()
T3CD0 000:746.060 - 0.229ms returns FALSE
T3CD0 000:746.071 JLINK_HasError()
T3CD0 000:747.777 JLINK_IsHalted()
T3CD0 000:748.004 - 0.233ms returns FALSE
T3CD0 000:748.016 JLINK_HasError()
T3CD0 000:749.847 JLINK_IsHalted()
T3CD0 000:750.059 - 0.218ms returns FALSE
T3CD0 000:750.070 JLINK_HasError()
T3CD0 000:751.738 JLINK_IsHalted()
T3CD0 000:751.949 - 0.217ms returns FALSE
T3CD0 000:751.961 JLINK_HasError()
T3CD0 000:755.758 JLINK_IsHalted()
T3CD0 000:756.010 - 0.258ms returns FALSE
T3CD0 000:756.022 JLINK_HasError()
T3CD0 000:757.720 JLINK_IsHalted()
T3CD0 000:757.921 - 0.206ms returns FALSE
T3CD0 000:757.931 JLINK_HasError()
T3CD0 000:759.747 JLINK_IsHalted()
T3CD0 000:759.981 - 0.240ms returns FALSE
T3CD0 000:759.993 JLINK_HasError()
T3CD0 000:761.823 JLINK_IsHalted()
T3CD0 000:762.059 - 0.241ms returns FALSE
T3CD0 000:762.070 JLINK_HasError()
T3CD0 000:763.734 JLINK_IsHalted()
T3CD0 000:763.958 - 0.230ms returns FALSE
T3CD0 000:763.970 JLINK_HasError()
T3CD0 000:765.735 JLINK_IsHalted()
T3CD0 000:765.973 - 0.244ms returns FALSE
T3CD0 000:765.985 JLINK_HasError()
T3CD0 000:767.806 JLINK_IsHalted()
T3CD0 000:768.082 - 0.282ms returns FALSE
T3CD0 000:768.093 JLINK_HasError()
T3CD0 000:769.743 JLINK_IsHalted()
T3CD0 000:771.452   CPU_ReadMem(2 bytes @ 0x20000000)
T3CD0 000:771.687 - 1.950ms returns TRUE
T3CD0 000:771.698 JLINK_ReadReg(R15 (PC))
T3CD0 000:771.707 - 0.011ms returns 0x20000000
T3CD0 000:771.714 JLINK_ClrBPEx(BPHandle = 0x00000007)
T3CD0 000:771.719 - 0.007ms returns 0x00
T3CD0 000:771.725 JLINK_ReadReg(R0)
T3CD0 000:771.730 - 0.007ms returns 0x00000000
T3CD0 000:772.152 JLINK_WriteMem(0x20000164, 0x29C Bytes, ...)
T3CD0 000:772.160   Data:  46 46 0D F1 08 0A 01 90 62 69 01 21 01 98 90 47 ...
T3CD0 000:772.173   CPU_WriteMem(668 bytes @ 0x20000164)
T3CD0 000:774.342 - 2.196ms returns 0x29C
T3CD0 000:774.354 JLINK_WriteMem(0x20000400, 0x164 Bytes, ...)
T3CD0 000:774.360   Data:  53 11 0A EB 83 01 22 F0 1F 02 82 1A 01 20 0B 68 ...
T3CD0 000:774.372   CPU_WriteMem(356 bytes @ 0x20000400)
T3CD0 000:775.587 - 1.240ms returns 0x164
T3CD0 000:775.601 JLINK_HasError()
T3CD0 000:775.608 JLINK_WriteReg(R0, 0x08000C00)
T3CD0 000:775.619 - 0.016ms returns 0
T3CD0 000:775.628 JLINK_WriteReg(R1, 0x00000400)
T3CD0 000:775.633 - 0.007ms returns 0
T3CD0 000:775.639 JLINK_WriteReg(R2, 0x20000164)
T3CD0 000:775.644 - 0.007ms returns 0
T3CD0 000:775.649 JLINK_WriteReg(R3, 0x00000000)
T3CD0 000:775.658 - 0.010ms returns 0
T3CD0 000:775.664 JLINK_WriteReg(R4, 0x00000000)
T3CD0 000:775.668 - 0.007ms returns 0
T3CD0 000:775.674 JLINK_WriteReg(R5, 0x00000000)
T3CD0 000:775.679 - 0.007ms returns 0
T3CD0 000:775.685 JLINK_WriteReg(R6, 0x00000000)
T3CD0 000:775.690 - 0.007ms returns 0
T3CD0 000:775.696 JLINK_WriteReg(R7, 0x00000000)
T3CD0 000:775.701 - 0.007ms returns 0
T3CD0 000:775.707 JLINK_WriteReg(R8, 0x00000000)
T3CD0 000:775.712 - 0.007ms returns 0
T3CD0 000:775.718 JLINK_WriteReg(R9, 0x20000160)
T3CD0 000:775.722 - 0.007ms returns 0
T3CD0 000:775.728 JLINK_WriteReg(R10, 0x00000000)
T3CD0 000:775.733 - 0.007ms returns 0
T3CD0 000:775.739 JLINK_WriteReg(R11, 0x00000000)
T3CD0 000:775.744 - 0.007ms returns 0
T3CD0 000:775.749 JLINK_WriteReg(R12, 0x00000000)
T3CD0 000:775.754 - 0.007ms returns 0
T3CD0 000:775.760 JLINK_WriteReg(R13 (SP), 0x20001000)
T3CD0 000:775.765 - 0.007ms returns 0
T3CD0 000:775.771 JLINK_WriteReg(R14, 0x20000001)
T3CD0 000:775.776 - 0.007ms returns 0
T3CD0 000:775.781 JLINK_WriteReg(R15 (PC), 0x200000F4)
T3CD0 000:775.786 - 0.007ms returns 0
T3CD0 000:775.792 JLINK_WriteReg(XPSR, 0x01000000)
T3CD0 000:775.797 - 0.007ms returns 0
T3CD0 000:775.802 JLINK_WriteReg(MSP, 0x20001000)
T3CD0 000:775.807 - 0.007ms returns 0
T3CD0 000:775.813 JLINK_WriteReg(PSP, 0x20001000)
T3CD0 000:775.818 - 0.007ms returns 0
T3CD0 000:775.823 JLINK_WriteReg(CFBP, 0x00000000)
T3CD0 000:775.828 - 0.007ms returns 0
T3CD0 000:775.834 JLINK_SetBPEx(Addr = 0x20000000, Type = 0xFFFFFFF2)
T3CD0 000:775.840 - 0.008ms returns 0x00000008
T3CD0 000:775.846 JLINK_Go()
T3CD0 000:775.857   CPU_ReadMem(4 bytes @ 0xE0001000)
T3CD0 000:777.574 - 1.733ms
T3CD0 000:777.584 JLINK_IsHalted()
T3CD0 000:777.773 - 0.193ms returns FALSE
T3CD0 000:777.784 JLINK_HasError()
T3CD0 000:780.686 JLINK_IsHalted()
T3CD0 000:780.899 - 0.218ms returns FALSE
T3CD0 000:780.908 JLINK_HasError()
T3CD0 000:782.210 JLINK_IsHalted()
T3CD0 000:782.425 - 0.218ms returns FALSE
T3CD0 000:782.434 JLINK_HasError()
T3CD0 000:784.233 JLINK_IsHalted()
T3CD0 000:784.499 - 0.269ms returns FALSE
T3CD0 000:784.507 JLINK_HasError()
T3CD0 000:786.200 JLINK_IsHalted()
T3CD0 000:786.399 - 0.203ms returns FALSE
T3CD0 000:786.408 JLINK_HasError()
T3CD0 000:788.195 JLINK_IsHalted()
T3CD0 000:788.399 - 0.208ms returns FALSE
T3CD0 000:788.408 JLINK_HasError()
T3CD0 000:790.198 JLINK_IsHalted()
T3CD0 000:790.400 - 0.206ms returns FALSE
T3CD0 000:790.409 JLINK_HasError()
T3CD0 000:792.187 JLINK_IsHalted()
T3CD0 000:792.404 - 0.223ms returns FALSE
T3CD0 000:792.416 JLINK_HasError()
T3CD0 000:794.182 JLINK_IsHalted()
T3CD0 000:794.399 - 0.224ms returns FALSE
T3CD0 000:794.411 JLINK_HasError()
T3CD0 000:796.199 JLINK_IsHalted()
T3CD0 000:796.449 - 0.253ms returns FALSE
T3CD0 000:796.457 JLINK_HasError()
T3CD0 000:798.174 JLINK_IsHalted()
T3CD0 000:798.403 - 0.235ms returns FALSE
T3CD0 000:798.415 JLINK_HasError()
T3CD0 000:800.162 JLINK_IsHalted()
T3CD0 000:800.374 - 0.215ms returns FALSE
T3CD0 000:800.382 JLINK_HasError()
T3CD0 000:802.182 JLINK_IsHalted()
T3CD0 000:802.427 - 0.249ms returns FALSE
T3CD0 000:802.435 JLINK_HasError()
T3CD0 000:804.180 JLINK_IsHalted()
T3CD0 000:804.408 - 0.231ms returns FALSE
T3CD0 000:804.416 JLINK_HasError()
T3CD0 000:806.258 JLINK_IsHalted()
T3CD0 000:806.500 - 0.248ms returns FALSE
T3CD0 000:806.512 JLINK_HasError()
T3CD0 000:808.258 JLINK_IsHalted()
T3CD0 000:809.851   CPU_ReadMem(2 bytes @ 0x20000000)
T3CD0 000:810.033 - 1.779ms returns TRUE
T3CD0 000:810.043 JLINK_ReadReg(R15 (PC))
T3CD0 000:810.051 - 0.009ms returns 0x20000000
T3CD0 000:810.057 JLINK_ClrBPEx(BPHandle = 0x00000008)
T3CD0 000:810.062 - 0.007ms returns 0x00
T3CD0 000:810.068 JLINK_ReadReg(R0)
T3CD0 000:810.073 - 0.010ms returns 0x00000000
T3CD0 000:810.508 JLINK_WriteMem(0x20000164, 0x29C Bytes, ...)
T3CD0 000:810.516   Data:  FA D1 07 B0 00 BD 00 00 00 10 01 40 00 08 01 40 ...
T3CD0 000:810.530   CPU_WriteMem(668 bytes @ 0x20000164)
T3CD0 000:812.660 - 2.158ms returns 0x29C
T3CD0 000:812.671 JLINK_WriteMem(0x20000400, 0x164 Bytes, ...)
T3CD0 000:812.677   Data:  65 6C 65 5F 6C 65 76 65 6C 2E 74 78 74 3D 22 31 ...
T3CD0 000:812.688   CPU_WriteMem(356 bytes @ 0x20000400)
T3CD0 000:813.910 - 1.246ms returns 0x164
T3CD0 000:813.923 JLINK_HasError()
T3CD0 000:813.930 JLINK_WriteReg(R0, 0x08001000)
T3CD0 000:813.937 - 0.009ms returns 0
T3CD0 000:813.943 JLINK_WriteReg(R1, 0x00000400)
T3CD0 000:813.948 - 0.007ms returns 0
T3CD0 000:813.954 JLINK_WriteReg(R2, 0x20000164)
T3CD0 000:813.959 - 0.007ms returns 0
T3CD0 000:813.965 JLINK_WriteReg(R3, 0x00000000)
T3CD0 000:813.969 - 0.007ms returns 0
T3CD0 000:813.975 JLINK_WriteReg(R4, 0x00000000)
T3CD0 000:813.980 - 0.007ms returns 0
T3CD0 000:813.985 JLINK_WriteReg(R5, 0x00000000)
T3CD0 000:813.990 - 0.007ms returns 0
T3CD0 000:813.996 JLINK_WriteReg(R6, 0x00000000)
T3CD0 000:814.001 - 0.007ms returns 0
T3CD0 000:814.006 JLINK_WriteReg(R7, 0x00000000)
T3CD0 000:814.011 - 0.007ms returns 0
T3CD0 000:814.017 JLINK_WriteReg(R8, 0x00000000)
T3CD0 000:814.021 - 0.007ms returns 0
T3CD0 000:814.027 JLINK_WriteReg(R9, 0x20000160)
T3CD0 000:814.032 - 0.007ms returns 0
T3CD0 000:814.037 JLINK_WriteReg(R10, 0x00000000)
T3CD0 000:814.042 - 0.007ms returns 0
T3CD0 000:814.048 JLINK_WriteReg(R11, 0x00000000)
T3CD0 000:814.052 - 0.007ms returns 0
T3CD0 000:814.058 JLINK_WriteReg(R12, 0x00000000)
T3CD0 000:814.063 - 0.007ms returns 0
T3CD0 000:814.068 JLINK_WriteReg(R13 (SP), 0x20001000)
T3CD0 000:814.074 - 0.007ms returns 0
T3CD0 000:814.079 JLINK_WriteReg(R14, 0x20000001)
T3CD0 000:814.084 - 0.007ms returns 0
T3CD0 000:814.090 JLINK_WriteReg(R15 (PC), 0x200000F4)
T3CD0 000:814.094 - 0.007ms returns 0
T3CD0 000:814.100 JLINK_WriteReg(XPSR, 0x01000000)
T3CD0 000:814.105 - 0.007ms returns 0
T3CD0 000:814.110 JLINK_WriteReg(MSP, 0x20001000)
T3CD0 000:814.115 - 0.007ms returns 0
T3CD0 000:814.122 JLINK_WriteReg(PSP, 0x20001000)
T3CD0 000:814.127 - 0.007ms returns 0
T3CD0 000:814.133 JLINK_WriteReg(CFBP, 0x00000000)
T3CD0 000:814.138 - 0.007ms returns 0
T3CD0 000:814.144 JLINK_SetBPEx(Addr = 0x20000000, Type = 0xFFFFFFF2)
T3CD0 000:814.150 - 0.008ms returns 0x00000009
T3CD0 000:814.155 JLINK_Go()
T3CD0 000:814.167   CPU_ReadMem(4 bytes @ 0xE0001000)
T3CD0 000:815.953 - 1.805ms
T3CD0 000:815.966 JLINK_IsHalted()
T3CD0 000:816.156 - 0.193ms returns FALSE
T3CD0 000:816.165 JLINK_HasError()
T3CD0 000:818.175 JLINK_IsHalted()
T3CD0 000:818.374 - 0.203ms returns FALSE
T3CD0 000:818.383 JLINK_HasError()
T3CD0 000:820.181 JLINK_IsHalted()
T3CD0 000:820.427 - 0.252ms returns FALSE
T3CD0 000:820.439 JLINK_HasError()
T3CD0 000:821.891 JLINK_IsHalted()
T3CD0 000:822.110 - 0.225ms returns FALSE
T3CD0 000:822.121 JLINK_HasError()
T3CD0 000:823.945 JLINK_IsHalted()
T3CD0 000:824.159 - 0.221ms returns FALSE
T3CD0 000:824.171 JLINK_HasError()
T3CD0 000:825.738 JLINK_IsHalted()
T3CD0 000:825.949 - 0.216ms returns FALSE
T3CD0 000:825.960 JLINK_HasError()
T3CD0 000:827.958 JLINK_IsHalted()
T3CD0 000:828.184 - 0.232ms returns FALSE
T3CD0 000:828.196 JLINK_HasError()
T3CD0 000:829.951 JLINK_IsHalted()
T3CD0 000:830.159 - 0.214ms returns FALSE
T3CD0 000:830.171 JLINK_HasError()
T3CD0 000:831.835 JLINK_IsHalted()
T3CD0 000:832.036 - 0.204ms returns FALSE
T3CD0 000:832.045 JLINK_HasError()
T3CD0 000:833.828 JLINK_IsHalted()
T3CD0 000:834.033 - 0.209ms returns FALSE
T3CD0 000:834.042 JLINK_HasError()
T3CD0 000:835.848 JLINK_IsHalted()
T3CD0 000:836.083 - 0.238ms returns FALSE
T3CD0 000:836.091 JLINK_HasError()
T3CD0 000:837.858 JLINK_IsHalted()
T3CD0 000:838.089 - 0.237ms returns FALSE
T3CD0 000:838.101 JLINK_HasError()
T3CD0 000:839.840 JLINK_IsHalted()
T3CD0 000:840.059 - 0.225ms returns FALSE
T3CD0 000:840.071 JLINK_HasError()
T3CD0 000:841.836 JLINK_IsHalted()
T3CD0 000:842.059 - 0.229ms returns FALSE
T3CD0 000:842.071 JLINK_HasError()
T3CD0 000:843.833 JLINK_IsHalted()
T3CD0 000:844.061 - 0.234ms returns FALSE
T3CD0 000:844.073 JLINK_HasError()
T3CD0 000:845.911 JLINK_IsHalted()
T3CD0 000:846.161 - 0.255ms returns FALSE
T3CD0 000:846.172 JLINK_HasError()
T3CD0 000:847.820 JLINK_IsHalted()
T3CD0 000:849.546   CPU_ReadMem(2 bytes @ 0x20000000)
T3CD0 000:849.778 - 1.965ms returns TRUE
T3CD0 000:849.790 JLINK_ReadReg(R15 (PC))
T3CD0 000:849.798 - 0.010ms returns 0x20000000
T3CD0 000:849.804 JLINK_ClrBPEx(BPHandle = 0x00000009)
T3CD0 000:849.810 - 0.007ms returns 0x00
T3CD0 000:849.816 JLINK_ReadReg(R0)
T3CD0 000:849.821 - 0.007ms returns 0x00000000
T3CD0 000:850.228 JLINK_WriteMem(0x20000164, 0x29C Bytes, ...)
T3CD0 000:850.237   Data:  18 49 09 1F 09 68 41 F0 F0 01 16 4A 12 1F 11 60 ...
T3CD0 000:850.250   CPU_WriteMem(668 bytes @ 0x20000164)
T3CD0 000:852.432 - 2.243ms returns 0x29C
T3CD0 000:852.478 JLINK_WriteMem(0x20000400, 0x164 Bytes, ...)
T3CD0 000:852.483   Data:  02 28 76 D1 83 48 00 78 60 BB 83 48 00 88 83 49 ...
T3CD0 000:852.495   CPU_WriteMem(356 bytes @ 0x20000400)
T3CD0 000:853.714 - 1.244ms returns 0x164
T3CD0 000:853.728 JLINK_HasError()
T3CD0 000:853.735 JLINK_WriteReg(R0, 0x08001400)
T3CD0 000:853.742 - 0.009ms returns 0
T3CD0 000:853.748 JLINK_WriteReg(R1, 0x00000400)
T3CD0 000:853.753 - 0.007ms returns 0
T3CD0 000:853.759 JLINK_WriteReg(R2, 0x20000164)
T3CD0 000:853.764 - 0.007ms returns 0
T3CD0 000:853.770 JLINK_WriteReg(R3, 0x00000000)
T3CD0 000:853.775 - 0.007ms returns 0
T3CD0 000:853.781 JLINK_WriteReg(R4, 0x00000000)
T3CD0 000:853.786 - 0.007ms returns 0
T3CD0 000:853.791 JLINK_WriteReg(R5, 0x00000000)
T3CD0 000:853.796 - 0.007ms returns 0
T3CD0 000:853.802 JLINK_WriteReg(R6, 0x00000000)
T3CD0 000:853.806 - 0.007ms returns 0
T3CD0 000:853.812 JLINK_WriteReg(R7, 0x00000000)
T3CD0 000:853.817 - 0.007ms returns 0
T3CD0 000:853.822 JLINK_WriteReg(R8, 0x00000000)
T3CD0 000:853.827 - 0.007ms returns 0
T3CD0 000:853.833 JLINK_WriteReg(R9, 0x20000160)
T3CD0 000:853.838 - 0.007ms returns 0
T3CD0 000:853.843 JLINK_WriteReg(R10, 0x00000000)
T3CD0 000:853.848 - 0.007ms returns 0
T3CD0 000:853.854 JLINK_WriteReg(R11, 0x00000000)
T3CD0 000:853.858 - 0.007ms returns 0
T3CD0 000:853.864 JLINK_WriteReg(R12, 0x00000000)
T3CD0 000:853.869 - 0.007ms returns 0
T3CD0 000:853.874 JLINK_WriteReg(R13 (SP), 0x20001000)
T3CD0 000:853.879 - 0.007ms returns 0
T3CD0 000:853.885 JLINK_WriteReg(R14, 0x20000001)
T3CD0 000:853.890 - 0.007ms returns 0
T3CD0 000:853.895 JLINK_WriteReg(R15 (PC), 0x200000F4)
T3CD0 000:853.900 - 0.007ms returns 0
T3CD0 000:853.906 JLINK_WriteReg(XPSR, 0x01000000)
T3CD0 000:853.911 - 0.007ms returns 0
T3CD0 000:853.917 JLINK_WriteReg(MSP, 0x20001000)
T3CD0 000:853.921 - 0.007ms returns 0
T3CD0 000:853.927 JLINK_WriteReg(PSP, 0x20001000)
T3CD0 000:853.932 - 0.007ms returns 0
T3CD0 000:853.937 JLINK_WriteReg(CFBP, 0x00000000)
T3CD0 000:853.942 - 0.007ms returns 0
T3CD0 000:853.948 JLINK_SetBPEx(Addr = 0x20000000, Type = 0xFFFFFFF2)
T3CD0 000:853.954 - 0.008ms returns 0x0000000A
T3CD0 000:853.960 JLINK_Go()
T3CD0 000:853.970   CPU_ReadMem(4 bytes @ 0xE0001000)
T3CD0 000:855.726 - 1.771ms
T3CD0 000:855.735 JLINK_IsHalted()
T3CD0 000:855.926 - 0.194ms returns FALSE
T3CD0 000:855.934 JLINK_HasError()
T3CD0 000:859.788 JLINK_IsHalted()
T3CD0 000:860.002 - 0.221ms returns FALSE
T3CD0 000:860.015 JLINK_HasError()
T3CD0 000:861.786 JLINK_IsHalted()
T3CD0 000:862.031 - 0.249ms returns FALSE
T3CD0 000:862.040 JLINK_HasError()
T3CD0 000:863.751 JLINK_IsHalted()
T3CD0 000:863.949 - 0.204ms returns FALSE
T3CD0 000:863.964 JLINK_HasError()
T3CD0 000:867.737 JLINK_IsHalted()
T3CD0 000:867.972 - 0.242ms returns FALSE
T3CD0 000:867.986 JLINK_HasError()
T3CD0 000:869.730 JLINK_IsHalted()
T3CD0 000:869.925 - 0.199ms returns FALSE
T3CD0 000:869.934 JLINK_HasError()
T3CD0 000:871.409 JLINK_IsHalted()
T3CD0 000:871.624 - 0.220ms returns FALSE
T3CD0 000:871.633 JLINK_HasError()
T3CD0 000:873.403 JLINK_IsHalted()
T3CD0 000:873.595 - 0.196ms returns FALSE
T3CD0 000:873.605 JLINK_HasError()
T3CD0 000:875.427 JLINK_IsHalted()
T3CD0 000:875.626 - 0.206ms returns FALSE
T3CD0 000:875.639 JLINK_HasError()
T3CD0 000:877.427 JLINK_IsHalted()
T3CD0 000:877.682 - 0.262ms returns FALSE
T3CD0 000:877.694 JLINK_HasError()
T3CD0 000:879.417 JLINK_IsHalted()
T3CD0 000:879.671 - 0.258ms returns FALSE
T3CD0 000:879.680 JLINK_HasError()
T3CD0 000:881.384 JLINK_IsHalted()
T3CD0 000:881.573 - 0.194ms returns FALSE
T3CD0 000:881.583 JLINK_HasError()
T3CD0 000:883.411 JLINK_IsHalted()
T3CD0 000:883.651 - 0.246ms returns FALSE
T3CD0 000:883.663 JLINK_HasError()
T3CD0 000:885.373 JLINK_IsHalted()
T3CD0 000:885.570 - 0.201ms returns FALSE
T3CD0 000:885.579 JLINK_HasError()
T3CD0 000:887.397 JLINK_IsHalted()
T3CD0 000:889.154   CPU_ReadMem(2 bytes @ 0x20000000)
T3CD0 000:889.346 - 1.953ms returns TRUE
T3CD0 000:889.356 JLINK_ReadReg(R15 (PC))
T3CD0 000:889.363 - 0.009ms returns 0x20000000
T3CD0 000:889.369 JLINK_ClrBPEx(BPHandle = 0x0000000A)
T3CD0 000:889.374 - 0.007ms returns 0x00
T3CD0 000:889.380 JLINK_ReadReg(R0)
T3CD0 000:889.385 - 0.007ms returns 0x00000000
T3CD0 000:889.813 JLINK_WriteMem(0x20000164, 0x29C Bytes, ...)
T3CD0 000:889.822   Data:  0D FB 31 A0 00 F0 86 FB FF 22 11 46 10 46 00 F0 ...
T3CD0 000:889.836   CPU_WriteMem(668 bytes @ 0x20000164)
T3CD0 000:891.982 - 2.175ms returns 0x29C
T3CD0 000:891.994 JLINK_WriteMem(0x20000400, 0x164 Bytes, ...)
T3CD0 000:891.999   Data:  06 E0 46 0D 36 01 03 FA 06 F6 B1 43 41 F0 70 61 ...
T3CD0 000:892.011   CPU_WriteMem(356 bytes @ 0x20000400)
T3CD0 000:893.211 - 1.223ms returns 0x164
T3CD0 000:893.223 JLINK_HasError()
T3CD0 000:893.229 JLINK_WriteReg(R0, 0x08001800)
T3CD0 000:893.236 - 0.009ms returns 0
T3CD0 000:893.242 JLINK_WriteReg(R1, 0x00000400)
T3CD0 000:893.247 - 0.007ms returns 0
